T0644 000:022.763   SEGGER J-Link V7.60b Log File
T0644 000:022.881   DLL Compiled: Dec 22 2021 12:50:18
T0644 000:022.890   Logging started @ 2022-01-13 16:25
T0644 000:022.902 - 22.907ms
T0644 000:022.916 JLINK_SetWarnOutHandler(...)
T0644 000:022.926 - 0.014ms
T0644 000:022.937 JLINK_OpenEx(...)
T0644 000:024.525   Firmware: J-Link STLink V21 compiled Aug 12 2019 10:29:20
T0644 000:024.855   Firmware: J-Link STLink V21 compiled Aug 12 2019 10:29:20
T0644 000:038.806   Hardware: V1.00
T0644 000:038.836   S/N: 776083539
T0644 000:038.852   OEM: SEGGER
T0644 000:038.866   Feature(s): None
T0644 000:040.188   TELNET listener socket opened on port 19021
T0644 000:040.283   WEBSRV WEBSRV_Init(): Starting webserver thread(s)
T0644 000:040.426   WEBSRV Webserver running on local port 19080
T0644 000:050.027 - 27.111ms returns "O.K."
T0644 000:050.071 JLINK_GetEmuCaps()
T0644 000:050.081 - 0.014ms returns 0x98EA5A33
T0644 000:050.097 JLINK_TIF_GetAvailable(...)
T0644 000:050.289 - 0.203ms
T0644 000:050.311 JLINK_SetErrorOutHandler(...)
T0644 000:050.320 - 0.013ms
T0644 000:050.345 JLINK_ExecCommand("ProjectFile = "E:\WorkSpace\Keil\artpi\artpi-template\artpi-template\MDK-ARM\JLinkSettings.ini"", ...). 
T0644 000:059.482   Ref file found at: D:\Program Files\Keil\Core\ARM\Segger\JLinkDevices.ref
T0644 000:059.543   XML referenced by ref file: d:\Program Files\SEGGER\JLink\JLinkDevices.xml
T0644 000:060.162   d:\Program Files\SEGGER\JLink\JLinkDevices.xml evaluated successfully.
T0644 000:070.138 - 19.809ms returns 0x00
T0644 000:070.187 JLINK_ExecCommand("Device = STM32H750XBHx", ...). 
T0644 000:073.635   Device "STM32H750XB" selected.
T0644 000:073.940 - 3.748ms returns 0x00
T0644 000:073.957 JLINK_ExecCommand("DisableConnectionTimeout", ...). 
T0644 000:073.970 - 0.006ms returns 0x01
T0644 000:073.981 JLINK_GetHardwareVersion()
T0644 000:073.989 - 0.013ms returns 10000
T0644 000:074.000 JLINK_GetDLLVersion()
T0644 000:074.008 - 0.012ms returns 76002
T0644 000:074.018 JLINK_GetOEMString(...)
T0644 000:074.029 JLINK_GetFirmwareString(...)
T0644 000:074.040 - 0.015ms
T0644 000:074.065 JLINK_GetDLLVersion()
T0644 000:074.075 - 0.014ms returns 76002
T0644 000:074.085 JLINK_GetCompileDateTime()
T0644 000:074.094 - 0.012ms
T0644 000:074.109 JLINK_GetFirmwareString(...)
T0644 000:074.118 - 0.012ms
T0644 000:074.132 JLINK_GetHardwareVersion()
T0644 000:074.141 - 0.012ms returns 10000
T0644 000:074.156 JLINK_GetSN()
T0644 000:074.164 - 0.012ms returns 776083539
T0644 000:074.178 JLINK_GetOEMString(...)
T0644 000:074.194 JLINK_TIF_Select(JLINKARM_TIF_SWD)
T0644 000:074.887 - 0.703ms returns 0x00
T0644 000:074.906 JLINK_HasError()
T0644 000:074.923 JLINK_SetSpeed(50000)
T0644 000:075.042 - 0.127ms
T0644 000:075.060 JLINK_GetId()
T0644 000:075.310   ConfigTargetSettings() start
T0644 000:075.327    J-Link Script File: Executing ConfigTargetSettings()
T0644 000:075.356   ConfigTargetSettings() end
T0644 000:076.088   Found SW-DP with ID 0xCBA02477
T0644 000:090.367   Found SW-DP with ID 0xCBA02477
T0644 000:092.138   Old FW that does not support reading DPIDR via DAP jobs
T0644 000:092.904   DPv0 detected
T0644 000:092.926   CoreSight SoC-400 or earlier
T0644 000:092.944   Scanning AP map to find all available APs
T0644 000:093.938   AP[3]: Stopped AP scan as end of AP map has been reached
T0644 000:093.962   AP[0]: AHB-AP (IDR: 0x84770001)
T0644 000:093.979   AP[1]: AHB-AP (IDR: 0x84770001)
T0644 000:093.995   AP[2]: APB-AP (IDR: 0x54770002)
T0644 000:094.011   Iterating through AP map to find AHB-AP to use
T0644 000:094.797   AP[0]: Core found
T0644 000:094.819   AP[0]: AHB-AP ROM base: 0xE00FE000
T0644 000:095.232   CPUID register: 0x411FC271. Implementer code: 0x41 (ARM)
T0644 000:095.253   Found Cortex-M7 r1p1, Little endian.
T0644 000:196.280   -- Max. mem block: 0x00002EB8
T0644 000:196.963   CPU_ReadMem(4 bytes @ 0xE000EDF0)
T0644 000:197.365   CPU_ReadMem(4 bytes @ 0xE0002000)
T0644 000:197.775   FPUnit: 8 code (BP) slots and 0 literal slots
T0644 000:197.795   CPU_ReadMem(4 bytes @ 0xE000EDFC)
T0644 000:198.221   CPU_WriteMem(4 bytes @ 0xE000EDFC)
T0644 000:198.633   CPU_ReadMem(4 bytes @ 0xE0001000)
T0644 000:199.006   CPU_WriteMem(4 bytes @ 0xE0001000)
T0644 000:199.369   CPU_ReadMem(4 bytes @ 0xE000ED88)
T0644 000:199.704   CPU_WriteMem(4 bytes @ 0xE000ED88)
T0644 000:200.055   CPU_ReadMem(4 bytes @ 0xE000ED88)
T0644 000:200.421   CPU_WriteMem(4 bytes @ 0xE000ED88)
T0644 000:200.813   CoreSight components:
T0644 000:200.838   ROMTbl[0] @ E00FE000
T0644 000:200.852   CPU_ReadMem(64 bytes @ 0xE00FE000)
T0644 000:201.577   CPU_ReadMem(32 bytes @ 0xE00FFFE0)
T0644 000:202.126   [0][0]: E00FF000 CID B105100D PID 000BB4C7 ROM Table
T0644 000:202.147   ROMTbl[1] @ E00FF000
T0644 000:202.161   CPU_ReadMem(64 bytes @ 0xE00FF000)
T0644 000:202.891   CPU_ReadMem(32 bytes @ 0xE000EFE0)
T0644 000:203.429   [1][0]: E000E000 CID B105E00D PID 000BB00C SCS-M7
T0644 000:203.451   CPU_ReadMem(32 bytes @ 0xE0001FE0)
T0644 000:203.950   [1][1]: E0001000 CID B105E00D PID 000BB002 DWT
T0644 000:203.969   CPU_ReadMem(32 bytes @ 0xE0002FE0)
T0644 000:204.473   [1][2]: E0002000 CID B105E00D PID 000BB00E FPB-M7
T0644 000:204.499   CPU_ReadMem(32 bytes @ 0xE0000FE0)
T0644 000:205.003   [1][3]: E0000000 CID B105E00D PID 000BB001 ITM
T0644 000:205.021   CPU_ReadMem(32 bytes @ 0xE0041FE0)
T0644 000:205.558   [0][1]: E0041000 CID B105900D PID 001BB975 ETM-M7
T0644 000:205.576   CPU_ReadMem(32 bytes @ 0xE0043FE0)
T0644 000:206.108   [0][2]: E0043000 CID B105900D PID 004BB906 CTI
T0644 000:206.126   CPU_ReadMem(4 bytes @ 0xE000ED78)
T0644 000:206.501   Cache: Separate I- and D-cache.
T0644 000:206.515   CPU_WriteMem(4 bytes @ 0xE000ED84)
T0644 000:206.949   CPU_ReadMem(4 bytes @ 0xE000ED80)
T0644 000:207.267   I-Cache L1: 16 KB, 256 Sets, 32 Bytes/Line, 2-Way
T0644 000:207.285   CPU_WriteMem(4 bytes @ 0xE000ED84)
T0644 000:207.655   CPU_ReadMem(4 bytes @ 0xE000ED80)
T0644 000:207.978   D-Cache L1: 16 KB, 128 Sets, 32 Bytes/Line, 4-Way
T0644 000:208.240 - 133.188ms returns 0x6BA02477
T0644 000:208.261 JLINK_GetDLLVersion()
T0644 000:208.270 - 0.013ms returns 76002
T0644 000:208.281 JLINK_CORE_GetFound()
T0644 000:208.289 - 0.012ms returns 0xE0100FF
T0644 000:208.302 JLINK_GetDebugInfo(0x100 = JLINKARM_ROM_TABLE_ADDR_INDEX)
T0644 000:208.311   Value=0xE00FE000
T0644 000:208.324 - 0.026ms returns 0
T0644 000:208.344 JLINK_GetDebugInfo(0x100 = JLINKARM_ROM_TABLE_ADDR_INDEX)
T0644 000:208.353   Value=0xE00FE000
T0644 000:208.365 - 0.026ms returns 0
T0644 000:208.377 JLINK_GetDebugInfo(0x101 = JLINKARM_DEBUG_INFO_ETM_ADDR_INDEX)
T0644 000:208.387   Value=0xE0041000
T0644 000:208.399 - 0.025ms returns 0
T0644 000:208.413 JLINK_ReadMemEx(0xE0041FD0, 0x20 Bytes, Flags = 0x02000004)
T0644 000:208.438   CPU_ReadMem(32 bytes @ 0xE0041FD0)
T0644 000:208.923   Data:  04 00 00 00 00 00 00 00 00 00 00 00 00 00 00 00 ...
T0644 000:208.939 - 0.530ms returns 32 (0x20)
T0644 000:208.953 JLINK_GetDebugInfo(0x102 = JLINKARM_DEBUG_INFO_MTB_ADDR_INDEX)
T0644 000:208.962   Value=0x00000000
T0644 000:208.975 - 0.025ms returns 0
T0644 000:208.985 JLINK_GetDebugInfo(0x103 = JLINKARM_DEBUG_INFO_TPIU_ADDR_INDEX)
T0644 000:208.993   Value=0xE00F5000
T0644 000:209.005 - 0.024ms returns 0
T0644 000:209.017 JLINK_GetDebugInfo(0x104 = JLINKARM_DEBUG_INFO_ITM_ADDR_INDEX)
T0644 000:209.025   Value=0xE0000000
T0644 000:209.037 - 0.024ms returns 0
T0644 000:209.047 JLINK_GetDebugInfo(0x105 = JLINKARM_DEBUG_INFO_DWT_ADDR_INDEX)
T0644 000:209.056   Value=0xE0001000
T0644 000:209.068 - 0.024ms returns 0
T0644 000:209.079 JLINK_GetDebugInfo(0x106 = JLINKARM_DEBUG_INFO_FPB_ADDR_INDEX)
T0644 000:209.087   Value=0xE0002000
T0644 000:209.099 - 0.024ms returns 0
T0644 000:209.144 JLINK_GetDebugInfo(0x107 = JLINKARM_DEBUG_INFO_NVIC_ADDR_INDEX)
T0644 000:209.157   Value=0xE000E000
T0644 000:209.170 - 0.030ms returns 0
T0644 000:209.181 JLINK_GetDebugInfo(0x10C = JLINKARM_DEBUG_INFO_DBG_ADDR_INDEX)
T0644 000:209.190   Value=0xE000EDF0
T0644 000:209.202 - 0.025ms returns 0
T0644 000:209.212 JLINK_GetDebugInfo(0x01 = Unknown)
T0644 000:209.225   Value=0x00000001
T0644 000:209.238 - 0.029ms returns 0
T0644 000:209.248 JLINK_ReadMemU32(0xE000ED00, 0x1 Items)
T0644 000:209.262   CPU_ReadMem(4 bytes @ 0xE000ED00)
T0644 000:209.568   Data:  71 C2 1F 41
T0644 000:209.585   Debug reg: CPUID
T0644 000:209.598 - 0.353ms returns 1 (0x1)
T0644 000:209.610 JLINK_GetDebugInfo(0x10F = JLINKARM_DEBUG_INFO_HAS_CORTEX_M_SECURITY_EXT_INDEX)
T0644 000:209.619   Value=0x00000000
T0644 000:209.632 - 0.029ms returns 0
T0644 000:209.647 JLINK_HasError()
T0644 000:209.657 JLINK_SetResetType(JLINKARM_CM3_RESET_TYPE_NORMAL)
T0644 000:209.666 - 0.012ms returns JLINKARM_CM3_RESET_TYPE_NORMAL
T0644 000:209.676 JLINK_Reset()
T0644 000:209.694   CPU is running
T0644 000:209.708   CPU_WriteMem(4 bytes @ 0xE000EDF0)
T0644 000:210.011   CPU is running
T0644 000:210.029   CPU_WriteMem(4 bytes @ 0xE000EDFC)
T0644 000:210.366   Reset: Halt core after reset via DEMCR.VC_CORERESET.
T0644 000:210.768   Reset: Reset device via AIRCR.SYSRESETREQ.
T0644 000:210.786   CPU is running
T0644 000:210.799   CPU_WriteMem(4 bytes @ 0xE000ED0C)
T0644 000:263.757   CPU_ReadMem(4 bytes @ 0xE000EDF0)
T0644 000:264.189   CPU_ReadMem(4 bytes @ 0xE000EDF0)
T0644 000:264.792   CPU is running
T0644 000:264.815   CPU_WriteMem(4 bytes @ 0xE000EDF0)
T0644 000:265.360   CPU is running
T0644 000:265.383   CPU_WriteMem(4 bytes @ 0xE000EDFC)
T0644 000:270.939   CPU_ReadMem(4 bytes @ 0xE000EDF0)
T0644 000:274.134   CPU_WriteMem(4 bytes @ 0xE0002000)
T0644 000:274.764   CPU_ReadMem(4 bytes @ 0xE000EDFC)
T0644 000:275.338   CPU_ReadMem(4 bytes @ 0xE0001000)
T0644 000:275.973 - 66.341ms
T0644 000:276.069 JLINK_HasError()
T0644 000:276.282 JLINK_ReadReg(R15 (PC))
T0644 000:276.361 - 0.101ms returns 0x08000338
T0644 000:276.414 JLINK_ReadReg(XPSR)
T0644 000:276.455 - 0.061ms returns 0x01000000
T0644 000:276.504 JLINK_Halt()
T0644 000:276.542 - 0.056ms returns 0x00
T0644 000:276.588 JLINK_ReadMemU32(0xE000EDF0, 0x1 Items)
T0644 000:276.644   CPU_ReadMem(4 bytes @ 0xE000EDF0)
T0644 000:277.241   Data:  03 00 03 00
T0644 000:277.325   Debug reg: DHCSR
T0644 000:277.381 - 0.811ms returns 1 (0x1)
T0644 000:277.445 JLINK_WriteU32_64(0xE000EDF0, 0xA05F0003)
T0644 000:277.493   Debug reg: DHCSR
T0644 000:278.427   CPU_WriteMem(4 bytes @ 0xE000EDF0)
T0644 000:279.035 - 1.634ms returns 0 (0x00000000)
T0644 000:279.119 JLINK_WriteU32_64(0xE000EDFC, 0x01000000)
T0644 000:279.162   Debug reg: DEMCR
T0644 000:279.241   CPU_WriteMem(4 bytes @ 0xE000EDFC)
T0644 000:279.851 - 0.776ms returns 0 (0x00000000)
T0644 000:280.039 JLINK_GetHWStatus(...)
T0644 000:280.409 - 0.416ms returns 0
T0644 000:280.569 JLINK_GetNumBPUnits(Type = 0xFFFFFF00)
T0644 000:280.617 - 0.068ms returns 0x08
T0644 000:280.665 JLINK_GetNumBPUnits(Type = 0xF0)
T0644 000:280.705 - 0.059ms returns 0x2000
T0644 000:280.751 JLINK_GetNumWPUnits()
T0644 000:280.790 - 0.057ms returns 4
T0644 000:280.889 JLINK_GetSpeed()
T0644 000:280.966 - 0.095ms returns 4000
T0644 000:281.043 JLINK_ReadMemU32(0xE000E004, 0x1 Items)
T0644 000:281.110   CPU_ReadMem(4 bytes @ 0xE000E004)
T0644 000:281.714   Data:  04 00 00 00
T0644 000:281.797 - 0.774ms returns 1 (0x1)
T0644 000:281.853 JLINK_ReadMemU32(0xE000E004, 0x1 Items)
T0644 000:281.913   CPU_ReadMem(4 bytes @ 0xE000E004)
T0644 000:282.454   Data:  04 00 00 00
T0644 000:282.560 - 0.726ms returns 1 (0x1)
T0644 000:282.621 JLINK_WriteMemEx(0xE0001000, 0x0000001C Bytes, Flags = 0x02000004)
T0644 000:282.705   Data:  01 00 00 00 00 00 00 00 00 00 00 00 00 00 00 00 ...
T0644 000:282.824   CPU_WriteMem(28 bytes @ 0xE0001000)
T0644 000:283.605 - 1.030ms returns 0x1C
T0644 000:283.693 JLINK_HasError()
T0644 000:283.744 JLINK_ReadReg(R15 (PC))
T0644 000:283.793 - 0.069ms returns 0x08000338
T0644 000:283.841 JLINK_ReadReg(XPSR)
T0644 000:283.882 - 0.059ms returns 0x01000000
T0644 000:303.659 JLINK_SWO_Control(JLINKARM_SWO_CMD_GET_SPEED_INFO, ...)
T0644 000:303.916 - 0.270ms returns 0x00
T0644 000:303.939 JLINK_SWO_Control(JLINKARM_SWO_CMD_STOP, ...)
T0644 000:303.954 - 0.020ms returns 0x00
T0644 000:303.966 JLINK_SWO_Control(JLINKARM_SWO_CMD_START, ...)
T0644 000:304.187    -- UART
T0644 000:304.204    -- 1111111bps
T0644 000:304.751 - 0.793ms returns 0x00
T0644 000:304.768 JLINK_WriteU32_64(0xE00F5010, 0x00000008)
T0644 000:304.797   CPU_WriteMem(4 bytes @ 0xE00F5010)
T0644 000:305.144 - 0.387ms returns 0 (0x00000000)
T0644 000:305.164 JLINK_WriteU32_64(0xE00F50F0, 0x00000002)
T0644 000:305.183   CPU_WriteMem(4 bytes @ 0xE00F50F0)
T0644 000:305.517 - 0.362ms returns 0 (0x00000000)
T0644 000:305.536 JLINK_WriteU32_64(0xE00F5304, 0x00000000)
T0644 000:305.551   CPU_WriteMem(4 bytes @ 0xE00F5304)
T0644 000:305.894 - 0.366ms returns 0 (0x00000000)
T0644 000:305.911 JLINK_WriteU32_64(0xE0000FB0, 0xC5ACCE55)
T0644 000:305.920   Debug reg: ITM_LOCKACCESS
T0644 000:305.938   CPU_WriteMem(4 bytes @ 0xE0000FB0)
T0644 000:306.292 - 0.391ms returns 0 (0x00000000)
T0644 000:306.312 JLINK_WriteU32_64(0xE0000E80, 0x0001000D)
T0644 000:306.322   Debug reg: ITM_TCR
T0644 000:306.340 - 0.033ms returns 0 (0x00000000)
T0644 000:306.351 JLINK_WriteU32_64(0xE0000E00, 0xFFFFFFFF)
T0644 000:306.360   Debug reg: ITM_TER
T0644 000:306.375 - 0.028ms returns 0 (0x00000000)
T0644 000:306.386 JLINK_WriteU32_64(0xE0000E40, 0x00000008)
T0644 000:306.395   Debug reg: ITM_TPR
T0644 000:306.410 - 0.028ms returns 0 (0x00000000)
T0644 000:306.420 JLINK_WriteU32_64(0xE0001000, 0x0001061F)
T0644 000:306.429   Debug reg: DWT_CTRL
T0644 000:306.444   CPU_WriteMem(4 bytes @ 0xE0001000)
T0644 000:306.758 - 0.346ms returns 0 (0x00000000)
T0644 000:337.055 JLINK_ReadMemEx(0xE0001004, 0x4 Bytes, Flags = 0x02000000)
T0644 000:337.090   Data:  00 00 00 00
T0644 000:337.105   Debug reg: DWT_CYCCNT
T0644 000:337.118 - 0.067ms returns 4 (0x4)
T0644 000:406.583 JLINK_HasError()
T0644 000:406.613 JLINK_SetResetType(JLINKARM_CM3_RESET_TYPE_NORMAL)
T0644 000:406.623 - 0.014ms returns JLINKARM_CM3_RESET_TYPE_NORMAL
T0644 000:406.634 JLINK_Reset()
T0644 000:406.649   CPU_WriteMem(4 bytes @ 0xE0000E00)
T0644 000:406.663   CPU_WriteMem(4 bytes @ 0xE0000E40)
T0644 000:406.675   CPU_WriteMem(4 bytes @ 0xE0000E80)
T0644 000:407.453   CPU_WriteMem(4 bytes @ 0xE000EDF0)
T0644 000:407.800   CPU_WriteMem(4 bytes @ 0xE000EDFC)
T0644 000:408.157   Reset: Halt core after reset via DEMCR.VC_CORERESET.
T0644 000:408.575   Reset: Reset device via AIRCR.SYSRESETREQ.
T0644 000:408.594   CPU_WriteMem(4 bytes @ 0xE000ED0C)
T0644 000:461.190   CPU_ReadMem(4 bytes @ 0xE000EDF0)
T0644 000:461.594   CPU_ReadMem(4 bytes @ 0xE000EDF0)
T0644 000:462.031   CPU_WriteMem(4 bytes @ 0xE000EDF0)
T0644 000:462.467   CPU_WriteMem(4 bytes @ 0xE000EDFC)
T0644 000:468.602   CPU_ReadMem(4 bytes @ 0xE000EDF0)
T0644 000:471.941   CPU_WriteMem(4 bytes @ 0xE0002000)
T0644 000:472.441   CPU_ReadMem(4 bytes @ 0xE000EDFC)
T0644 000:472.947   CPU_ReadMem(4 bytes @ 0xE0001000)
T0644 000:473.305 - 66.684ms
T0644 000:473.333 JLINK_WriteU32_64(0xE000EDFC, 0x01000000)
T0644 000:473.346   Debug reg: DEMCR
T0644 000:473.370   CPU_WriteMem(4 bytes @ 0xE000EDFC)
T0644 000:473.763 - 0.442ms returns 0 (0x00000000)
T0644 000:473.827 JLINK_HasError()
T0644 000:474.217 JLINK_ReadReg(R15 (PC))
T0644 000:474.241 - 0.030ms returns 0x08000338
T0644 000:474.255 JLINK_ReadReg(XPSR)
T0644 000:474.267 - 0.017ms returns 0x01000000
T0644 000:478.272 JLINK_HasError()
T0644 000:478.291 JLINK_ReadReg(R0)
T0644 000:478.302 - 0.016ms returns 0x00000000
T0644 000:478.313 JLINK_ReadReg(R1)
T0644 000:478.323 - 0.013ms returns 0x00000000
T0644 000:478.333 JLINK_ReadReg(R2)
T0644 000:478.342 - 0.012ms returns 0x00000000
T0644 000:478.352 JLINK_ReadReg(R3)
T0644 000:478.361 - 0.012ms returns 0x00000000
T0644 000:478.371 JLINK_ReadReg(R4)
T0644 000:478.380 - 0.013ms returns 0x00000000
T0644 000:478.390 JLINK_HasError()
T0644 000:478.404 JLINK_ReadMemU32(0xE0001004, 0x1 Items)
T0644 000:478.429   Data:  00 00 00 00
T0644 000:478.443   Debug reg: DWT_CYCCNT
T0644 000:478.456 - 0.056ms returns 1 (0x1)
T0644 000:718.879 JLINK_ReadMemEx(0x08000338, 0x3C Bytes, Flags = 0x02000000)
T0644 000:718.920   CPU_ReadMem(128 bytes @ 0x08000300)
T0644 000:720.077    -- Updating C cache (128 bytes @ 0x08000300)
T0644 000:720.114    -- Read from C cache (60 bytes @ 0x08000338)
T0644 000:720.130   Data:  09 48 80 47 09 48 00 47 FE E7 FE E7 FE E7 FE E7 ...
T0644 000:720.143 - 1.268ms returns 60 (0x3C)
T0644 000:720.159 JLINK_ReadMemEx(0x08000338, 0x2 Bytes, Flags = 0x02000000)
T0644 000:720.170    -- Read from C cache (2 bytes @ 0x08000338)
T0644 000:720.184   Data:  09 48
T0644 000:720.198 - 0.043ms returns 2 (0x2)
T0644 000:720.275 JLINK_ReadMemEx(0x0800033A, 0x2 Bytes, Flags = 0x02000000)
T0644 000:720.286    -- Read from C cache (2 bytes @ 0x0800033A)
T0644 000:720.298   Data:  80 47
T0644 000:720.311 - 0.040ms returns 2 (0x2)
T0644 000:835.228 JLINK_WriteU32_64(0xE0001008, 0x00000000)
T0644 000:835.258   Debug reg: DWT_CPICNT
T0644 000:835.283 - 0.060ms returns 0 (0x00000000)
T0644 000:835.295 JLINK_WriteU32_64(0xE000100C, 0x00000000)
T0644 000:835.304   Debug reg: DWT_EXCCNT
T0644 000:835.318 - 0.027ms returns 0 (0x00000000)
T0644 000:835.329 JLINK_WriteU32_64(0xE0001010, 0x00000000)
T0644 000:835.337   Debug reg: DWT_SLEEPCNT
T0644 000:835.351 - 0.026ms returns 0 (0x00000000)
T0644 000:835.362 JLINK_WriteU32_64(0xE0001014, 0x00000000)
T0644 000:835.370   Debug reg: DWT_LSUCNT
T0644 000:835.384 - 0.026ms returns 0 (0x00000000)
T0644 000:835.394 JLINK_WriteU32_64(0xE0001018, 0x00000000)
T0644 000:835.403   Debug reg: DWT_FOLDCNT
T0644 000:835.417 - 0.026ms returns 0 (0x00000000)
T0644 002:338.123 JLINK_ReadMemEx(0x0800033A, 0x2 Bytes, Flags = 0x02000000)
T0644 002:338.155    -- Read from C cache (2 bytes @ 0x0800033A)
T0644 002:338.169   Data:  80 47
T0644 002:338.181 - 0.062ms returns 2 (0x2)
T0644 002:338.193 JLINK_ReadMemEx(0x0800033C, 0x3C Bytes, Flags = 0x02000000)
T0644 002:338.203    -- Read from C cache (60 bytes @ 0x0800033C)
T0644 002:338.216   Data:  09 48 00 47 FE E7 FE E7 FE E7 FE E7 FE E7 FE E7 ...
T0644 002:338.228 - 0.039ms returns 60 (0x3C)
T0644 002:338.238 JLINK_ReadMemEx(0x0800033C, 0x2 Bytes, Flags = 0x02000000)
T0644 002:338.247    -- Read from C cache (2 bytes @ 0x0800033C)
T0644 002:338.260   Data:  09 48
T0644 002:338.272 - 0.037ms returns 2 (0x2)
T05F4 002:822.907 JLINK_ReadMemEx(0x08000338, 0x2 Bytes, Flags = 0x02000000)
T05F4 002:822.942    -- Read from C cache (2 bytes @ 0x08000338)
T05F4 002:822.958   Data:  09 48
T05F4 002:822.972 - 0.071ms returns 2 (0x2)
T05F4 002:822.986 JLINK_HasError()
T05F4 002:823.000 JLINK_SetBPEx(Addr = 0x08003300, Type = 0xFFFFFFF2)
T05F4 002:823.014 - 0.019ms returns 0x00000001
T05F4 002:823.026 JLINK_HasError()
T05F4 002:823.037 JLINK_HasError()
T05F4 002:823.055 JLINK_ReadMemU32(0xE0001004, 0x1 Items)
T05F4 002:823.071   Data:  00 00 00 00
T05F4 002:823.085   Debug reg: DWT_CYCCNT
T05F4 002:823.098 - 0.047ms returns 1 (0x1)
T05F4 002:823.109 JLINK_WriteU32_64(0xE0001004, 0x000003FF)
T05F4 002:823.119   Debug reg: DWT_CYCCNT
T05F4 002:823.136 - 0.032ms returns 0 (0x00000000)
T05F4 002:823.148 JLINK_WriteU32_64(0xE0001000, 0x0041061F)
T05F4 002:823.157   Debug reg: DWT_CTRL
T05F4 002:823.173   CPU_WriteMem(4 bytes @ 0xE0001000)
T05F4 002:823.535 - 0.401ms returns 0 (0x00000000)
T05F4 002:823.563 JLINK_WriteU32_64(0xE0000E80, 0x0001000F)
T05F4 002:823.581   Debug reg: ITM_TCR
T05F4 002:823.601 - 0.042ms returns 0 (0x00000000)
T05F4 002:823.859 JLINK_SWO_Control(JLINKARM_SWO_CMD_GET_NUM_BYTES, ...)
T05F4 002:823.880 - 0.028ms returns 0x00
T05F4 002:823.898 JLINK_Go()
T05F4 002:824.183   CPU_WriteMem(4 bytes @ 0xE0002000)
T05F4 002:824.541   CPU_ReadMem(4 bytes @ 0xE0001000)
T05F4 002:824.877   CPU_WriteMem(4 bytes @ 0xE0000E80)
T05F4 002:824.911   CPU_WriteMem(4 bytes @ 0xE0001008)
T05F4 002:824.924   CPU_WriteMem(4 bytes @ 0xE000100C)
T05F4 002:824.948   CPU_WriteMem(4 bytes @ 0xE0001010)
T05F4 002:824.970   CPU_WriteMem(4 bytes @ 0xE0001014)
T05F4 002:824.990   CPU_WriteMem(4 bytes @ 0xE0001018)
T05F4 002:825.017   CPU_WriteMem(4 bytes @ 0xE0002008)
T05F4 002:825.036   CPU_WriteMem(4 bytes @ 0xE000200C)
T05F4 002:825.057   CPU_WriteMem(4 bytes @ 0xE0002010)
T05F4 002:825.078   CPU_WriteMem(4 bytes @ 0xE0002014)
T05F4 002:825.098   CPU_WriteMem(4 bytes @ 0xE0002018)
T05F4 002:825.120   CPU_WriteMem(4 bytes @ 0xE000201C)
T05F4 002:825.141   CPU_WriteMem(4 bytes @ 0xE0002020)
T05F4 002:825.160   CPU_WriteMem(4 bytes @ 0xE0002024)
T05F4 002:828.263   CPU_WriteMem(4 bytes @ 0xE0001004)
T05F4 002:829.245 - 5.370ms
T05F4 002:829.282 JLINK_WriteU32_64(0xE0001000, 0x0001061F)
T05F4 002:829.297   Debug reg: DWT_CTRL
T05F4 002:829.327   CPU is running
T05F4 002:829.370   CPU_WriteMem(4 bytes @ 0xE0001000)
T05F4 002:829.688 - 0.415ms returns 0 (0x00000000)
T05F4 002:929.948 JLINK_SWO_Read(..., Offset = 0x00, NumBytes = 0x400000)
T05F4 002:929.971   Data: 
T05F4 002:929.985 - 0.041ms returns NumBytesRead = 0x00
T05F4 002:929.997 JLINK_SWO_Control(JLINKARM_SWO_CMD_FLUSH, ...)
T05F4 002:930.007 - 0.014ms returns 0x00
T05F4 002:930.019 JLINK_HasError()
T05F4 002:930.032 JLINK_IsHalted()
T05F4 002:932.690 - 2.673ms returns TRUE
T05F4 002:932.716 JLINK_HasError()
T05F4 002:932.728 JLINK_Halt()
T05F4 002:932.738 - 0.014ms returns 0x00
T05F4 002:932.749 JLINK_IsHalted()
T05F4 002:932.759 - 0.014ms returns TRUE
T05F4 002:932.770 JLINK_IsHalted()
T05F4 002:932.779 - 0.013ms returns TRUE
T05F4 002:932.790 JLINK_IsHalted()
T05F4 002:932.800 - 0.014ms returns TRUE
T05F4 002:932.811 JLINK_HasError()
T05F4 002:932.822 JLINK_ReadReg(R15 (PC))
T05F4 002:932.834 - 0.017ms returns 0x08003300
T05F4 002:932.845 JLINK_ReadReg(XPSR)
T05F4 002:932.855 - 0.013ms returns 0x21000000
T05F4 002:932.867 JLINK_SWO_Read(..., Offset = 0x00, NumBytes = 0x400000)
T05F4 002:932.877   Data: 
T05F4 002:932.890 - 0.028ms returns NumBytesRead = 0x00
T05F4 002:932.901 JLINK_SWO_Control(JLINKARM_SWO_CMD_FLUSH, ...)
T05F4 002:932.910 - 0.013ms returns 0x00
T05F4 002:932.927 JLINK_HasError()
T05F4 002:933.153 JLINK_ClrBPEx(BPHandle = 0x00000001)
T05F4 002:933.170 - 0.022ms returns 0x00
T05F4 002:933.181 JLINK_HasError()
T05F4 002:933.193 JLINK_HasError()
T05F4 002:933.204 JLINK_ReadMemU32(0xE000ED30, 0x1 Items)
T05F4 002:933.219   CPU_ReadMem(4 bytes @ 0xE000ED30)
T05F4 002:933.507   Data:  02 00 00 00
T05F4 002:933.530 - 0.331ms returns 1 (0x1)
T05F4 002:933.544 JLINK_ReadMemU32(0xE0001028, 0x1 Items)
T05F4 002:933.559   CPU_ReadMem(4 bytes @ 0xE0001028)
T05F4 002:933.869   Data:  00 00 00 00
T05F4 002:934.056   Debug reg: DWT_FUNC[0]
T05F4 002:934.077 - 0.538ms returns 1 (0x1)
T05F4 002:934.091 JLINK_ReadMemU32(0xE0001038, 0x1 Items)
T05F4 002:934.105   CPU_ReadMem(4 bytes @ 0xE0001038)
T05F4 002:934.390   Data:  00 02 00 00
T05F4 002:934.408   Debug reg: DWT_FUNC[1]
T05F4 002:934.421 - 0.335ms returns 1 (0x1)
T05F4 002:934.434 JLINK_ReadMemU32(0xE0001048, 0x1 Items)
T05F4 002:934.447   CPU_ReadMem(4 bytes @ 0xE0001048)
T05F4 002:934.736   Data:  00 00 00 00
T05F4 002:934.753   Debug reg: DWT_FUNC[2]
T05F4 002:934.767 - 0.337ms returns 1 (0x1)
T05F4 002:934.780 JLINK_ReadMemU32(0xE0001058, 0x1 Items)
T05F4 002:934.793   CPU_ReadMem(4 bytes @ 0xE0001058)
T05F4 002:935.069   Data:  00 00 00 00
T05F4 002:935.087   Debug reg: DWT_FUNC[3]
T05F4 002:935.100 - 0.324ms returns 1 (0x1)
T05F4 002:935.151 JLINK_HasError()
T05F4 002:935.164 JLINK_ReadReg(R0)
T05F4 002:935.174 - 0.015ms returns 0x24000140
T05F4 002:935.185 JLINK_ReadReg(R1)
T05F4 002:935.194 - 0.013ms returns 0x24000340
T05F4 002:935.204 JLINK_ReadReg(R2)
T05F4 002:935.214 - 0.013ms returns 0x24000340
T05F4 002:935.224 JLINK_ReadReg(R3)
T05F4 002:935.233 - 0.013ms returns 0x24000340
T05F4 002:935.244 JLINK_ReadReg(R4)
T05F4 002:935.253 - 0.013ms returns 0x00000000
T05F4 002:935.263 JLINK_ReadReg(R5)
T05F4 002:935.272 - 0.013ms returns 0x24000010
T05F4 002:935.282 JLINK_ReadReg(R6)
T05F4 002:935.291 - 0.013ms returns 0x00000000
T05F4 002:935.301 JLINK_ReadReg(R7)
T05F4 002:935.310 - 0.013ms returns 0x00000000
T05F4 002:935.321 JLINK_ReadReg(R8)
T05F4 002:935.337 - 0.021ms returns 0x00000000
T05F4 002:935.348 JLINK_ReadReg(R9)
T05F4 002:935.357 - 0.013ms returns 0x00000000
T05F4 002:935.368 JLINK_ReadReg(R10)
T05F4 002:935.377 - 0.013ms returns 0x080033C0
T05F4 002:935.388 JLINK_ReadReg(R11)
T05F4 002:935.397 - 0.013ms returns 0x00000000
T05F4 002:935.407 JLINK_ReadReg(R12)
T05F4 002:935.416 - 0.013ms returns 0x24000050
T05F4 002:935.427 JLINK_ReadReg(R13 (SP))
T05F4 002:935.436 - 0.014ms returns 0x24000740
T05F4 002:935.447 JLINK_ReadReg(R14)
T05F4 002:935.456 - 0.013ms returns 0x08000327
T05F4 002:935.467 JLINK_ReadReg(R15 (PC))
T05F4 002:935.476 - 0.013ms returns 0x08003300
T05F4 002:935.487 JLINK_ReadReg(XPSR)
T05F4 002:935.497 - 0.014ms returns 0x21000000
T05F4 002:935.508 JLINK_ReadReg(MSP)
T05F4 002:935.517 - 0.013ms returns 0x24000740
T05F4 002:935.528 JLINK_ReadReg(PSP)
T05F4 002:935.537 - 0.013ms returns 0x00000000
T05F4 002:935.548 JLINK_ReadReg(CFBP)
T05F4 002:935.557 - 0.013ms returns 0x04000000
T05F4 002:935.567 JLINK_ReadReg(FPSCR)
T05F4 002:939.725 - 4.177ms returns 0x03000000
T05F4 002:939.758 JLINK_ReadReg(FPS0)
T05F4 002:939.776 - 0.025ms returns 0x00000000
T05F4 002:939.793 JLINK_ReadReg(FPS1)
T05F4 002:939.808 - 0.020ms returns 0x00000000
T05F4 002:939.823 JLINK_ReadReg(FPS2)
T05F4 002:939.837 - 0.020ms returns 0x00000000
T05F4 002:939.852 JLINK_ReadReg(FPS3)
T05F4 002:939.865 - 0.019ms returns 0x00000000
T05F4 002:939.880 JLINK_ReadReg(FPS4)
T05F4 002:939.893 - 0.019ms returns 0x00000000
T05F4 002:939.911 JLINK_ReadReg(FPS5)
T05F4 002:939.924 - 0.019ms returns 0x00000000
T05F4 002:939.939 JLINK_ReadReg(FPS6)
T05F4 002:939.952 - 0.019ms returns 0x00000000
T05F4 002:939.967 JLINK_ReadReg(FPS7)
T05F4 002:939.984 - 0.022ms returns 0x00000000
T05F4 002:939.996 JLINK_ReadReg(FPS8)
T05F4 002:940.005 - 0.013ms returns 0x00000000
T05F4 002:940.017 JLINK_ReadReg(FPS9)
T05F4 002:940.030 - 0.017ms returns 0x00000000
T05F4 002:940.042 JLINK_ReadReg(FPS10)
T05F4 002:940.054 - 0.017ms returns 0x00000000
T05F4 002:940.066 JLINK_ReadReg(FPS11)
T05F4 002:940.075 - 0.013ms returns 0x00000000
T05F4 002:940.085 JLINK_ReadReg(FPS12)
T05F4 002:940.097 - 0.017ms returns 0x00000000
T05F4 002:940.109 JLINK_ReadReg(FPS13)
T05F4 002:940.121 - 0.016ms returns 0x00000000
T05F4 002:940.133 JLINK_ReadReg(FPS14)
T05F4 002:940.145 - 0.016ms returns 0x00000000
T05F4 002:940.158 JLINK_ReadReg(FPS15)
T05F4 002:940.168 - 0.015ms returns 0xFFFFFFFF
T05F4 002:940.181 JLINK_ReadReg(FPS16)
T05F4 002:940.193 - 0.016ms returns 0x00000000
T05F4 002:940.206 JLINK_ReadReg(FPS17)
T05F4 002:940.219 - 0.017ms returns 0x00000000
T05F4 002:940.232 JLINK_ReadReg(FPS18)
T05F4 002:940.242 - 0.014ms returns 0x00000000
T05F4 002:940.252 JLINK_ReadReg(FPS19)
T05F4 002:940.263 - 0.015ms returns 0x00000000
T05F4 002:940.274 JLINK_ReadReg(FPS20)
T05F4 002:940.283 - 0.014ms returns 0x00000000
T05F4 002:940.294 JLINK_ReadReg(FPS21)
T05F4 002:940.303 - 0.013ms returns 0x00000000
T05F4 002:940.314 JLINK_ReadReg(FPS22)
T05F4 002:940.324 - 0.014ms returns 0x00000000
T05F4 002:940.334 JLINK_ReadReg(FPS23)
T05F4 002:940.344 - 0.014ms returns 0x00000000
T05F4 002:940.354 JLINK_ReadReg(FPS24)
T05F4 002:940.365 - 0.016ms returns 0x00000000
T05F4 002:940.377 JLINK_ReadReg(FPS25)
T05F4 002:940.388 - 0.016ms returns 0x00000000
T05F4 002:940.401 JLINK_ReadReg(FPS26)
T05F4 002:940.412 - 0.016ms returns 0x00000000
T05F4 002:940.426 JLINK_ReadReg(FPS27)
T05F4 002:940.437 - 0.016ms returns 0x00000000
T05F4 002:940.449 JLINK_ReadReg(FPS28)
T05F4 002:940.460 - 0.015ms returns 0x00000000
T05F4 002:940.473 JLINK_ReadReg(FPS29)
T05F4 002:940.485 - 0.016ms returns 0x00000000
T05F4 002:940.497 JLINK_ReadReg(FPS30)
T05F4 002:940.509 - 0.017ms returns 0x00000000
T05F4 002:940.522 JLINK_ReadReg(FPS31)
T05F4 002:940.532 - 0.014ms returns 0xFFFFFFFF
T0644 002:945.694 JLINK_HasError()
T0644 002:945.721 JLINK_ReadMemU32(0xE0001004, 0x1 Items)
T0644 002:945.742   CPU_ReadMem(4 bytes @ 0xE0001004)
T0644 002:946.069   Data:  AC 09 00 00
T0644 002:946.098   Debug reg: DWT_CYCCNT
T0644 002:946.112 - 0.396ms returns 1 (0x1)
T0644 005:836.900 JLINK_ReadMemEx(0x08003320, 0x3C Bytes, Flags = 0x02000000)
T0644 005:836.938   CPU_ReadMem(128 bytes @ 0x08003300)
T0644 005:838.029    -- Updating C cache (128 bytes @ 0x08003300)
T0644 005:838.049    -- Read from C cache (60 bytes @ 0x08003320)
T0644 005:838.064   Data:  FF F7 92 FF 4F F4 80 71 28 46 FD F7 2D FB 4F F4 ...
T0644 005:838.077 - 1.181ms returns 60 (0x3C)
T0644 005:838.090 JLINK_ReadMemEx(0x08003320, 0x2 Bytes, Flags = 0x02000000)
T0644 005:838.101    -- Read from C cache (2 bytes @ 0x08003320)
T0644 005:838.113   Data:  FF F7
T0644 005:838.126 - 0.040ms returns 2 (0x2)
T0644 005:838.138 JLINK_ReadMemEx(0x08003322, 0x2 Bytes, Flags = 0x02000000)
T0644 005:838.147    -- Read from C cache (2 bytes @ 0x08003322)
T0644 005:838.160   Data:  92 FF
T0644 005:838.172 - 0.039ms returns 2 (0x2)
T0644 005:838.201 JLINK_ReadMemEx(0x08003324, 0x3C Bytes, Flags = 0x02000000)
T0644 005:838.211    -- Read from C cache (60 bytes @ 0x08003324)
T0644 005:838.225   Data:  4F F4 80 71 28 46 FD F7 2D FB 4F F4 FA 70 FD F7 ...
T0644 005:838.237 - 0.040ms returns 60 (0x3C)
T0644 005:838.248 JLINK_ReadMemEx(0x08003324, 0x2 Bytes, Flags = 0x02000000)
T0644 005:838.257    -- Read from C cache (2 bytes @ 0x08003324)
T0644 005:838.270   Data:  4F F4
T0644 005:838.282 - 0.039ms returns 2 (0x2)
T0644 005:838.293 JLINK_ReadMemEx(0x08003326, 0x2 Bytes, Flags = 0x02000000)
T0644 005:838.302    -- Read from C cache (2 bytes @ 0x08003326)
T0644 005:838.315   Data:  80 71
T0644 005:838.328 - 0.039ms returns 2 (0x2)
T0644 005:838.342 JLINK_ReadMemEx(0x08003328, 0x3C Bytes, Flags = 0x02000000)
T0644 005:838.352    -- Read from C cache (60 bytes @ 0x08003328)
T0644 005:838.365   Data:  28 46 FD F7 2D FB 4F F4 FA 70 FD F7 C1 F9 4F F4 ...
T0644 005:838.377 - 0.039ms returns 60 (0x3C)
T0644 005:838.388 JLINK_ReadMemEx(0x08003328, 0x2 Bytes, Flags = 0x02000000)
T0644 005:838.397    -- Read from C cache (2 bytes @ 0x08003328)
T0644 005:838.410   Data:  28 46
T0644 005:838.422 - 0.038ms returns 2 (0x2)
T0644 005:838.433 JLINK_ReadMemEx(0x0800332A, 0x2 Bytes, Flags = 0x02000000)
T0644 005:838.442    -- Read from C cache (2 bytes @ 0x0800332A)
T0644 005:838.454   Data:  FD F7
T0644 005:838.467 - 0.038ms returns 2 (0x2)
T05F4 007:329.645 JLINK_ReadMemEx(0x08003300, 0x2 Bytes, Flags = 0x02000000)
T05F4 007:329.676    -- Read from C cache (2 bytes @ 0x08003300)
T05F4 007:329.691   Data:  40 F6
T05F4 007:329.704 - 0.064ms returns 2 (0x2)
T05F4 007:329.716 JLINK_HasError()
T05F4 007:329.733 JLINK_HasError()
T05F4 007:329.744 JLINK_ReadMemU32(0xE0001004, 0x1 Items)
T05F4 007:329.761   Data:  AC 09 00 00
T05F4 007:329.774   Debug reg: DWT_CYCCNT
T05F4 007:329.787 - 0.047ms returns 1 (0x1)
T05F4 007:329.797 JLINK_WriteU32_64(0xE0001004, 0x00000BFF)
T05F4 007:329.807   Debug reg: DWT_CYCCNT
T05F4 007:329.824 - 0.031ms returns 0 (0x00000000)
T05F4 007:329.835 JLINK_WriteU32_64(0xE0001000, 0x0041061F)
T05F4 007:329.847   Debug reg: DWT_CTRL
T05F4 007:329.867   CPU_WriteMem(4 bytes @ 0xE0001000)
T05F4 007:330.213 - 0.389ms returns 0 (0x00000000)
T05F4 007:330.234 JLINK_WriteU32_64(0xE0000E80, 0x0001000F)
T05F4 007:330.244   Debug reg: ITM_TCR
T05F4 007:330.262 - 0.032ms returns 0 (0x00000000)
T05F4 007:330.274 JLINK_SWO_Control(JLINKARM_SWO_CMD_GET_NUM_BYTES, ...)
T05F4 007:330.284 - 0.014ms returns 0x00
T05F4 007:330.295 JLINK_Go()
T05F4 007:330.686   CPU_ReadMem(4 bytes @ 0xE0001000)
T05F4 007:331.015   CPU_WriteMem(4 bytes @ 0xE0000E80)
T05F4 007:331.038   CPU_WriteMem(4 bytes @ 0xE0002008)
T05F4 007:331.712   CPU_WriteMem(4 bytes @ 0xE0001004)
T05F4 007:332.738 - 2.459ms
T05F4 007:332.764 JLINK_WriteU32_64(0xE0001000, 0x0001061F)
T05F4 007:332.775   Debug reg: DWT_CTRL
T05F4 007:332.800   CPU is running
T05F4 007:332.817   CPU_WriteMem(4 bytes @ 0xE0001000)
T05F4 007:333.165 - 0.416ms returns 0 (0x00000000)
T05F4 007:433.902 JLINK_SWO_Read(..., Offset = 0x00, NumBytes = 0x400000)
T05F4 007:434.033   Data: 
T05F4 007:434.072 - 0.181ms returns NumBytesRead = 0x00
T05F4 007:434.101 JLINK_SWO_Control(JLINKARM_SWO_CMD_FLUSH, ...)
T05F4 007:434.124 - 0.034ms returns 0x00
T05F4 007:434.152 JLINK_HasError()
T05F4 007:434.180 JLINK_IsHalted()
T05F4 007:434.698 - 0.549ms returns FALSE
T05F4 007:535.761 JLINK_SWO_Read(..., Offset = 0x00, NumBytes = 0x400000)
T05F4 007:535.834   Data: 
T05F4 007:535.879 - 0.133ms returns NumBytesRead = 0x00
T05F4 007:535.917 JLINK_SWO_Control(JLINKARM_SWO_CMD_FLUSH, ...)
T05F4 007:535.948 - 0.047ms returns 0x00
T05F4 007:535.988 JLINK_HasError()
T05F4 007:536.028 JLINK_IsHalted()
T05F4 007:536.612 - 0.654ms returns FALSE
T05F4 007:637.517 JLINK_SWO_Read(..., Offset = 0x00, NumBytes = 0x400000)
T05F4 007:637.549   Data: 
T05F4 007:637.563 - 0.050ms returns NumBytesRead = 0x00
T05F4 007:637.575 JLINK_SWO_Control(JLINKARM_SWO_CMD_FLUSH, ...)
T05F4 007:637.585 - 0.014ms returns 0x00
T05F4 007:637.598 JLINK_HasError()
T05F4 007:637.611 JLINK_IsHalted()
T05F4 007:638.094 - 0.507ms returns FALSE
T05F4 007:739.049 JLINK_SWO_Read(..., Offset = 0x00, NumBytes = 0x400000)
T05F4 007:739.110   Data: 
T05F4 007:739.123 - 0.078ms returns NumBytesRead = 0x00
T05F4 007:739.134 JLINK_SWO_Control(JLINKARM_SWO_CMD_FLUSH, ...)
T05F4 007:739.143 - 0.013ms returns 0x00
T05F4 007:739.159 JLINK_HasError()
T05F4 007:739.187 JLINK_IsHalted()
T05F4 007:739.484 - 0.311ms returns FALSE
T05F4 007:839.820 JLINK_SWO_Read(..., Offset = 0x00, NumBytes = 0x400000)
T05F4 007:839.850   Data: 
T05F4 007:839.864 - 0.048ms returns NumBytesRead = 0x00
T05F4 007:839.876 JLINK_SWO_Control(JLINKARM_SWO_CMD_FLUSH, ...)
T05F4 007:839.885 - 0.013ms returns 0x00
T05F4 007:839.897 JLINK_HasError()
T05F4 007:839.909 JLINK_HasError()
T05F4 007:839.919 JLINK_ReadMemU32(0xE0001004, 0x1 Items)
T05F4 007:839.939   CPU_ReadMem(4 bytes @ 0xE0001004)
T05F4 007:840.303   Data:  DB C2 F0 01
T05F4 007:840.323   Debug reg: DWT_CYCCNT
T05F4 007:840.336 - 0.420ms returns 1 (0x1)
T05F4 007:842.980 JLINK_IsHalted()
T05F4 007:843.342 - 0.372ms returns FALSE
T05F4 007:944.014 JLINK_SWO_Read(..., Offset = 0x00, NumBytes = 0x400000)
T05F4 007:944.046   Data: 
T05F4 007:944.063 - 0.055ms returns NumBytesRead = 0x00
T05F4 007:944.078 JLINK_SWO_Control(JLINKARM_SWO_CMD_FLUSH, ...)
T05F4 007:944.090 - 0.017ms returns 0x00
T05F4 007:944.105 JLINK_HasError()
T05F4 007:944.120 JLINK_IsHalted()
T05F4 007:944.542 - 0.435ms returns FALSE
T05F4 008:044.745 JLINK_SWO_Read(..., Offset = 0x00, NumBytes = 0x400000)
T05F4 008:044.765   Data: 
T05F4 008:044.778 - 0.037ms returns NumBytesRead = 0x00
T05F4 008:044.789 JLINK_SWO_Control(JLINKARM_SWO_CMD_FLUSH, ...)
T05F4 008:044.798 - 0.013ms returns 0x00
T05F4 008:044.809 JLINK_HasError()
T05F4 008:044.820 JLINK_IsHalted()
T05F4 008:045.177 - 0.366ms returns FALSE
T05F4 008:146.309 JLINK_SWO_Read(..., Offset = 0x00, NumBytes = 0x400000)
T05F4 008:146.351   Data: 
T05F4 008:146.380 - 0.080ms returns NumBytesRead = 0x00
T05F4 008:146.404 JLINK_SWO_Control(JLINKARM_SWO_CMD_FLUSH, ...)
T05F4 008:146.425 - 0.029ms returns 0x00
T05F4 008:146.449 JLINK_HasError()
T05F4 008:146.474 JLINK_IsHalted()
T05F4 008:147.003 - 0.553ms returns FALSE
T05F4 008:247.501 JLINK_SWO_Read(..., Offset = 0x00, NumBytes = 0x400000)
T05F4 008:247.565   Data: 
T05F4 008:247.602 - 0.113ms returns NumBytesRead = 0x00
T05F4 008:247.633 JLINK_SWO_Control(JLINKARM_SWO_CMD_FLUSH, ...)
T05F4 008:247.659 - 0.038ms returns 0x00
T05F4 008:247.691 JLINK_HasError()
T05F4 008:247.724 JLINK_IsHalted()
T05F4 008:248.243 - 0.551ms returns FALSE
T05F4 008:349.097 JLINK_SWO_Read(..., Offset = 0x00, NumBytes = 0x400000)
T05F4 008:349.128   Data: 
T05F4 008:349.142 - 0.050ms returns NumBytesRead = 0x00
T05F4 008:349.154 JLINK_SWO_Control(JLINKARM_SWO_CMD_FLUSH, ...)
T05F4 008:349.164 - 0.015ms returns 0x00
T05F4 008:349.177 JLINK_HasError()
T05F4 008:349.190 JLINK_IsHalted()
T05F4 008:349.591 - 0.414ms returns FALSE
T05F4 008:450.401 JLINK_SWO_Read(..., Offset = 0x00, NumBytes = 0x400000)
T05F4 008:450.437   Data: 
T05F4 008:450.456 - 0.060ms returns NumBytesRead = 0x00
T05F4 008:450.470 JLINK_SWO_Control(JLINKARM_SWO_CMD_FLUSH, ...)
T05F4 008:450.481 - 0.016ms returns 0x00
T05F4 008:450.495 JLINK_HasError()
T05F4 008:450.509 JLINK_HasError()
T05F4 008:450.521 JLINK_ReadMemU32(0xE0001004, 0x1 Items)
T05F4 008:450.543   Data:  DB C2 F0 01
T05F4 008:450.559   Debug reg: DWT_CYCCNT
T05F4 008:450.574 - 0.057ms returns 1 (0x1)
T05F4 008:454.070 JLINK_IsHalted()
T05F4 008:454.455 - 0.399ms returns FALSE
T05F4 008:554.535 JLINK_SWO_Read(..., Offset = 0x00, NumBytes = 0x400000)
T05F4 008:554.561   Data: 
T05F4 008:554.575 - 0.044ms returns NumBytesRead = 0x00
T05F4 008:554.586 JLINK_SWO_Control(JLINKARM_SWO_CMD_FLUSH, ...)
T05F4 008:554.595 - 0.013ms returns 0x00
T05F4 008:554.607 JLINK_HasError()
T05F4 008:554.619 JLINK_IsHalted()
T05F4 008:555.163 - 0.554ms returns FALSE
T05F4 008:656.120 JLINK_SWO_Read(..., Offset = 0x00, NumBytes = 0x400000)
T05F4 008:656.194   Data: 
T05F4 008:656.207 - 0.092ms returns NumBytesRead = 0x00
T05F4 008:656.219 JLINK_SWO_Control(JLINKARM_SWO_CMD_FLUSH, ...)
T05F4 008:656.228 - 0.013ms returns 0x00
T05F4 008:656.240 JLINK_HasError()
T05F4 008:656.252 JLINK_IsHalted()
T05F4 008:656.580 - 0.336ms returns FALSE
T05F4 008:757.119 JLINK_SWO_Read(..., Offset = 0x00, NumBytes = 0x400000)
T05F4 008:757.142   Data: 
T05F4 008:757.156 - 0.041ms returns NumBytesRead = 0x00
T05F4 008:757.167 JLINK_SWO_Control(JLINKARM_SWO_CMD_FLUSH, ...)
T05F4 008:757.177 - 0.013ms returns 0x00
T05F4 008:757.189 JLINK_HasError()
T05F4 008:757.201 JLINK_IsHalted()
T05F4 008:757.572 - 0.381ms returns FALSE
T05F4 008:858.595 JLINK_SWO_Read(..., Offset = 0x00, NumBytes = 0x400000)
T05F4 008:858.618   Data: 
T05F4 008:858.634 - 0.043ms returns NumBytesRead = 0x00
T05F4 008:858.645 JLINK_SWO_Control(JLINKARM_SWO_CMD_FLUSH, ...)
T05F4 008:858.655 - 0.013ms returns 0x00
T05F4 008:858.666 JLINK_HasError()
T05F4 008:858.678 JLINK_IsHalted()
T05F4 008:859.044 - 0.375ms returns FALSE
T05F4 008:959.450 JLINK_HasError()
T05F4 008:959.481 JLINK_Halt()
T05F4 008:962.517 - 3.061ms returns 0x00
T05F4 008:962.555 JLINK_IsHalted()
T05F4 008:962.566 - 0.015ms returns TRUE
T05F4 008:962.577 JLINK_IsHalted()
T05F4 008:962.587 - 0.014ms returns TRUE
T05F4 008:962.598 JLINK_IsHalted()
T05F4 008:962.608 - 0.014ms returns TRUE
T05F4 008:962.620 JLINK_HasError()
T05F4 008:962.633 JLINK_ReadReg(R15 (PC))
T05F4 008:962.647 - 0.019ms returns 0x080009B8
T05F4 008:962.660 JLINK_ReadReg(XPSR)
T05F4 008:962.671 - 0.016ms returns 0x21000000
T05F4 008:962.685 JLINK_SWO_Read(..., Offset = 0x00, NumBytes = 0x400000)
T05F4 008:962.697   Data: 
T05F4 008:962.711 - 0.031ms returns NumBytesRead = 0x00
T05F4 008:962.724 JLINK_SWO_Control(JLINKARM_SWO_CMD_FLUSH, ...)
T05F4 008:962.735 - 0.016ms returns 0x00
T05F4 008:962.752 JLINK_HasError()
T05F4 008:962.765 JLINK_HasError()
T05F4 008:962.776 JLINK_ReadMemU32(0xE000ED30, 0x1 Items)
T05F4 008:962.794   CPU_ReadMem(4 bytes @ 0xE000ED30)
T05F4 008:963.215   Data:  01 00 00 00
T05F4 008:963.250 - 0.479ms returns 1 (0x1)
T05F4 008:963.267 JLINK_ReadMemU32(0xE0001028, 0x1 Items)
T05F4 008:963.305   CPU_ReadMem(4 bytes @ 0xE0001028)
T05F4 008:963.731   Data:  00 00 00 00
T05F4 008:963.757   Debug reg: DWT_FUNC[0]
T05F4 008:963.771 - 0.509ms returns 1 (0x1)
T05F4 008:963.790 JLINK_ReadMemU32(0xE0001038, 0x1 Items)
T05F4 008:963.807   CPU_ReadMem(4 bytes @ 0xE0001038)
T05F4 008:964.205   Data:  00 02 00 00
T05F4 008:964.226   Debug reg: DWT_FUNC[1]
T05F4 008:964.241 - 0.456ms returns 1 (0x1)
T05F4 008:964.257 JLINK_ReadMemU32(0xE0001048, 0x1 Items)
T05F4 008:964.275   CPU_ReadMem(4 bytes @ 0xE0001048)
T05F4 008:964.711   Data:  00 00 00 00
T05F4 008:964.735   Debug reg: DWT_FUNC[2]
T05F4 008:964.754 - 0.504ms returns 1 (0x1)
T05F4 008:964.776 JLINK_ReadMemU32(0xE0001058, 0x1 Items)
T05F4 008:964.793   CPU_ReadMem(4 bytes @ 0xE0001058)
T05F4 008:965.147   Data:  00 00 00 00
T05F4 008:965.170   Debug reg: DWT_FUNC[3]
T05F4 008:965.191 - 0.421ms returns 1 (0x1)
T05F4 008:965.453 JLINK_HasError()
T05F4 008:965.476 JLINK_ReadReg(R0)
T05F4 008:965.491 - 0.020ms returns 0x00000000
T05F4 008:965.504 JLINK_ReadReg(R1)
T05F4 008:965.515 - 0.016ms returns 0x0C000000
T05F4 008:965.528 JLINK_ReadReg(R2)
T05F4 008:965.539 - 0.016ms returns 0x00000000
T05F4 008:965.552 JLINK_ReadReg(R3)
T05F4 008:965.563 - 0.016ms returns 0x00000000
T05F4 008:965.576 JLINK_ReadReg(R4)
T05F4 008:965.587 - 0.016ms returns 0x240000A8
T05F4 008:965.599 JLINK_ReadReg(R5)
T05F4 008:965.611 - 0.017ms returns 0x00200000
T05F4 008:965.624 JLINK_ReadReg(R6)
T05F4 008:965.635 - 0.016ms returns 0x00000000
T05F4 008:965.647 JLINK_ReadReg(R7)
T05F4 008:965.658 - 0.016ms returns 0x02000000
T05F4 008:965.671 JLINK_ReadReg(R8)
T05F4 008:965.682 - 0.016ms returns 0x01FFFFFF
T05F4 008:965.694 JLINK_ReadReg(R9)
T05F4 008:965.705 - 0.016ms returns 0x00000000
T05F4 008:965.718 JLINK_ReadReg(R10)
T05F4 008:965.729 - 0.016ms returns 0x080033C0
T05F4 008:965.741 JLINK_ReadReg(R11)
T05F4 008:965.752 - 0.016ms returns 0x00000000
T05F4 008:965.767 JLINK_ReadReg(R12)
T05F4 008:965.778 - 0.016ms returns 0x00000000
T05F4 008:965.790 JLINK_ReadReg(R13 (SP))
T05F4 008:965.801 - 0.016ms returns 0x240006F8
T05F4 008:965.814 JLINK_ReadReg(R14)
T05F4 008:965.825 - 0.016ms returns 0x0800313F
T05F4 008:965.838 JLINK_ReadReg(R15 (PC))
T05F4 008:965.849 - 0.016ms returns 0x080009B8
T05F4 008:965.862 JLINK_ReadReg(XPSR)
T05F4 008:965.873 - 0.016ms returns 0x21000000
T05F4 008:965.886 JLINK_ReadReg(MSP)
T05F4 008:965.896 - 0.016ms returns 0x240006F8
T05F4 008:965.909 JLINK_ReadReg(PSP)
T05F4 008:965.920 - 0.015ms returns 0x00000000
T05F4 008:965.932 JLINK_ReadReg(CFBP)
T05F4 008:965.943 - 0.016ms returns 0x04000000
T05F4 008:965.956 JLINK_ReadReg(FPSCR)
T05F4 008:970.294 - 4.352ms returns 0x03000000
T05F4 008:970.319 JLINK_ReadReg(FPS0)
T05F4 008:970.332 - 0.021ms returns 0x00000000
T05F4 008:970.347 JLINK_ReadReg(FPS1)
T05F4 008:970.358 - 0.016ms returns 0x00000000
T05F4 008:970.371 JLINK_ReadReg(FPS2)
T05F4 008:970.382 - 0.016ms returns 0x00000000
T05F4 008:970.394 JLINK_ReadReg(FPS3)
T05F4 008:970.405 - 0.015ms returns 0x00000000
T05F4 008:970.418 JLINK_ReadReg(FPS4)
T05F4 008:970.428 - 0.015ms returns 0x00000000
T05F4 008:970.441 JLINK_ReadReg(FPS5)
T05F4 008:970.452 - 0.015ms returns 0x00000000
T05F4 008:970.464 JLINK_ReadReg(FPS6)
T05F4 008:970.475 - 0.015ms returns 0x00000000
T05F4 008:970.487 JLINK_ReadReg(FPS7)
T05F4 008:970.498 - 0.016ms returns 0x00000000
T05F4 008:970.510 JLINK_ReadReg(FPS8)
T05F4 008:970.521 - 0.016ms returns 0x00000000
T05F4 008:970.534 JLINK_ReadReg(FPS9)
T05F4 008:970.544 - 0.015ms returns 0x00000000
T05F4 008:970.557 JLINK_ReadReg(FPS10)
T05F4 008:970.568 - 0.016ms returns 0x00000000
T05F4 008:970.580 JLINK_ReadReg(FPS11)
T05F4 008:970.591 - 0.015ms returns 0x00000000
T05F4 008:970.603 JLINK_ReadReg(FPS12)
T05F4 008:970.613 - 0.015ms returns 0x00000000
T05F4 008:970.626 JLINK_ReadReg(FPS13)
T05F4 008:970.636 - 0.015ms returns 0x00000000
T05F4 008:970.649 JLINK_ReadReg(FPS14)
T05F4 008:970.659 - 0.015ms returns 0x00000000
T05F4 008:970.672 JLINK_ReadReg(FPS15)
T05F4 008:970.682 - 0.015ms returns 0xFFFFFFFF
T05F4 008:970.694 JLINK_ReadReg(FPS16)
T05F4 008:970.705 - 0.015ms returns 0x00000000
T05F4 008:970.717 JLINK_ReadReg(FPS17)
T05F4 008:970.728 - 0.015ms returns 0x00000000
T05F4 008:970.740 JLINK_ReadReg(FPS18)
T05F4 008:970.751 - 0.015ms returns 0x00000000
T05F4 008:970.763 JLINK_ReadReg(FPS19)
T05F4 008:970.773 - 0.015ms returns 0x00000000
T05F4 008:970.786 JLINK_ReadReg(FPS20)
T05F4 008:970.796 - 0.015ms returns 0x00000000
T05F4 008:970.809 JLINK_ReadReg(FPS21)
T05F4 008:970.819 - 0.016ms returns 0x00000000
T05F4 008:970.832 JLINK_ReadReg(FPS22)
T05F4 008:970.842 - 0.015ms returns 0x00000000
T05F4 008:970.855 JLINK_ReadReg(FPS23)
T05F4 008:970.865 - 0.015ms returns 0x00000000
T05F4 008:970.877 JLINK_ReadReg(FPS24)
T05F4 008:970.888 - 0.015ms returns 0x00000000
T05F4 008:970.903 JLINK_ReadReg(FPS25)
T05F4 008:970.916 - 0.017ms returns 0x00000000
T05F4 008:970.928 JLINK_ReadReg(FPS26)
T05F4 008:970.939 - 0.015ms returns 0x00000000
T05F4 008:970.951 JLINK_ReadReg(FPS27)
T05F4 008:970.962 - 0.015ms returns 0x00000000
T05F4 008:970.974 JLINK_ReadReg(FPS28)
T05F4 008:970.985 - 0.015ms returns 0x00000000
T05F4 008:970.997 JLINK_ReadReg(FPS29)
T05F4 008:971.008 - 0.015ms returns 0x00000000
T05F4 008:971.020 JLINK_ReadReg(FPS30)
T05F4 008:971.031 - 0.015ms returns 0x00000000
T05F4 008:971.043 JLINK_ReadReg(FPS31)
T05F4 008:971.054 - 0.015ms returns 0xFFFFFFFF
T0644 008:972.257 JLINK_ReadMemEx(0x24000714, 0x4 Bytes, Flags = 0x02000000)
T0644 008:972.283   CPU_ReadMem(64 bytes @ 0x24000700)
T0644 008:973.032    -- Updating C cache (64 bytes @ 0x24000700)
T0644 008:973.056    -- Read from C cache (4 bytes @ 0x24000714)
T0644 008:973.072   Data:  2F 2B 00 08
T0644 008:973.087 - 0.835ms returns 4 (0x4)
T0644 008:973.178 JLINK_ReadMemEx(0x240006FC, 0x4 Bytes, Flags = 0x02000000)
T0644 008:973.195   CPU_ReadMem(64 bytes @ 0x240006C0)
T0644 008:973.918    -- Updating C cache (64 bytes @ 0x240006C0)
T0644 008:973.942    -- Read from C cache (4 bytes @ 0x240006FC)
T0644 008:973.957   Data:  A8 00 00 24
T0644 008:973.973 - 0.800ms returns 4 (0x4)
T0644 008:973.988 JLINK_ReadMemEx(0x24000700, 0x4 Bytes, Flags = 0x02000000)
T0644 008:974.003    -- Read from C cache (4 bytes @ 0x24000700)
T0644 008:974.018   Data:  00 00 00 00
T0644 008:974.033 - 0.050ms returns 4 (0x4)
T0644 008:974.046 JLINK_ReadMemEx(0x24000704, 0x4 Bytes, Flags = 0x02000000)
T0644 008:974.058    -- Read from C cache (4 bytes @ 0x24000704)
T0644 008:974.073   Data:  00 00 00 00
T0644 008:974.088 - 0.047ms returns 4 (0x4)
T0644 008:974.100 JLINK_ReadMemEx(0x24000708, 0x4 Bytes, Flags = 0x02000000)
T0644 008:974.112    -- Read from C cache (4 bytes @ 0x24000708)
T0644 008:974.127   Data:  00 00 00 00
T0644 008:974.142 - 0.046ms returns 4 (0x4)
T0644 008:974.154 JLINK_ReadMemEx(0x2400070C, 0x4 Bytes, Flags = 0x02000000)
T0644 008:974.166    -- Read from C cache (4 bytes @ 0x2400070C)
T0644 008:974.181   Data:  00 00 00 00
T0644 008:974.196 - 0.047ms returns 4 (0x4)
T0644 008:974.209 JLINK_ReadMemEx(0x24000710, 0x4 Bytes, Flags = 0x02000000)
T0644 008:974.221    -- Read from C cache (4 bytes @ 0x24000710)
T0644 008:974.238   Data:  00 00 00 00
T0644 008:974.261 - 0.061ms returns 4 (0x4)
T0644 008:974.282 JLINK_ReadMemEx(0x24000714, 0x4 Bytes, Flags = 0x02000000)
T0644 008:974.302    -- Read from C cache (4 bytes @ 0x24000714)
T0644 008:974.318   Data:  2F 2B 00 08
T0644 008:974.332 - 0.054ms returns 4 (0x4)
T0644 008:974.347 JLINK_ReadMemEx(0x2400072C, 0x4 Bytes, Flags = 0x02000000)
T0644 008:974.358    -- Read from C cache (4 bytes @ 0x2400072C)
T0644 008:974.373   Data:  D1 22 00 08
T0644 008:974.387 - 0.045ms returns 4 (0x4)
T0644 008:974.402 JLINK_ReadMemEx(0x24000720, 0x4 Bytes, Flags = 0x02000000)
T0644 008:974.413    -- Read from C cache (4 bytes @ 0x24000720)
T0644 008:974.428   Data:  A8 00 00 24
T0644 008:974.442 - 0.045ms returns 4 (0x4)
T0644 008:974.454 JLINK_ReadMemEx(0x24000724, 0x4 Bytes, Flags = 0x02000000)
T0644 008:974.465    -- Read from C cache (4 bytes @ 0x24000724)
T0644 008:974.480   Data:  10 00 00 24
T0644 008:974.494 - 0.045ms returns 4 (0x4)
T0644 008:974.506 JLINK_ReadMemEx(0x24000728, 0x4 Bytes, Flags = 0x02000000)
T0644 008:974.518    -- Read from C cache (4 bytes @ 0x24000728)
T0644 008:974.532   Data:  00 00 00 00
T0644 008:974.547 - 0.045ms returns 4 (0x4)
T0644 008:974.559 JLINK_ReadMemEx(0x2400072C, 0x4 Bytes, Flags = 0x02000000)
T0644 008:974.570    -- Read from C cache (4 bytes @ 0x2400072C)
T0644 008:974.584   Data:  D1 22 00 08
T0644 008:974.599 - 0.045ms returns 4 (0x4)
T0644 008:974.611 JLINK_ReadMemEx(0x24000734, 0x4 Bytes, Flags = 0x02000000)
T0644 008:974.623    -- Read from C cache (4 bytes @ 0x24000734)
T0644 008:974.637   Data:  4D 25 00 08
T0644 008:974.652 - 0.045ms returns 4 (0x4)
T0644 008:974.666 JLINK_ReadMemEx(0x24000730, 0x4 Bytes, Flags = 0x02000000)
T0644 008:974.680    -- Read from C cache (4 bytes @ 0x24000730)
T0644 008:974.696   Data:  00 08 02 58
T0644 008:974.710 - 0.049ms returns 4 (0x4)
T0644 008:974.722 JLINK_ReadMemEx(0x24000734, 0x4 Bytes, Flags = 0x02000000)
T0644 008:974.733    -- Read from C cache (4 bytes @ 0x24000734)
T0644 008:974.748   Data:  4D 25 00 08
T0644 008:974.762 - 0.044ms returns 4 (0x4)
T0644 008:974.774 JLINK_ReadMemEx(0x2400073C, 0x4 Bytes, Flags = 0x02000000)
T0644 008:974.786    -- Read from C cache (4 bytes @ 0x2400073C)
T0644 008:974.800   Data:  1D 33 00 08
T0644 008:974.814 - 0.044ms returns 4 (0x4)
T0644 008:974.828 JLINK_ReadMemEx(0x24000738, 0x4 Bytes, Flags = 0x02000000)
T0644 008:974.839    -- Read from C cache (4 bytes @ 0x24000738)
T0644 008:974.853   Data:  00 00 00 00
T0644 008:974.868 - 0.045ms returns 4 (0x4)
T0644 008:974.880 JLINK_ReadMemEx(0x2400073C, 0x4 Bytes, Flags = 0x02000000)
T0644 008:974.891    -- Read from C cache (4 bytes @ 0x2400073C)
T0644 008:974.905   Data:  1D 33 00 08
T0644 008:974.920 - 0.044ms returns 4 (0x4)
T0644 008:982.704 JLINK_HasError()
T0644 008:982.732 JLINK_ReadMemU32(0xE0001004, 0x1 Items)
T0644 008:982.753   CPU_ReadMem(4 bytes @ 0xE0001004)
T0644 008:983.087   Data:  10 0B 38 06
T0644 008:983.107   Debug reg: DWT_CYCCNT
T0644 008:983.120 - 0.392ms returns 1 (0x1)
T0644 008:989.315 JLINK_ReadMemEx(0x080009B8, 0x3C Bytes, Flags = 0x02000000)
T0644 008:989.347   CPU_ReadMem(128 bytes @ 0x08000980)
T0644 008:990.469    -- Updating C cache (128 bytes @ 0x08000980)
T0644 008:990.491    -- Read from C cache (60 bytes @ 0x080009B8)
T0644 008:990.505   Data:  40 F2 38 10 C2 F2 00 40 00 68 70 47 00 00 00 00 ...
T0644 008:990.518 - 1.207ms returns 60 (0x3C)
